
T19170 000:367 SEGGER J-Link V5.10l Log File (0002ms, 0278ms total)
T19170 000:367 DLL Compiled: Feb 11 2016 18:55:09 (0002ms, 0278ms total)
T19170 000:367 Logging started @ 2016-11-25 20:32 (0002ms, 0278ms total)
T19170 000:369 JLINK_SetWarnOutHandler(...) (0000ms, 0278ms total)
T19170 000:369 JLINK_OpenEx(...)
Firmware: J-Link ARM V8 compiled Nov 28 2014 13:44:46
Hardware: V8.00
S/N: 959985457
Feature(s): RDI,FlashDL,FlashBP,JFlash,GDBFULL  returns O.K. (0284ms, 0562ms total)
T19170 000:653 JLINK_SetErrorOutHandler(...) (0000ms, 0562ms total)
T19170 000:653 JLINK_ExecCommand("ProjectFile = "D:\Source_Of_Lujie\嵌入式综合课程设计\项目代码\ucos2移植\ucosii\Project\RVMDK（uv4）\JLinkSettings.ini"", ...)  returns 0x00 (0001ms, 0563ms total)
T19170 000:675 JLINK_ExecCommand("Device = STM32F103VE", ...)Device "STM32F103VE" selected.  returns 0x00 (0022ms, 0585ms total)
T19170 000:697 JLINK_ExecCommand("DisableConnectionTimeout", ...)  returns 0x01 (0000ms, 0585ms total)
T19170 000:697 JLINK_GetHardwareVersion()  returns 0x13880 (0000ms, 0585ms total)
T19170 000:697 JLINK_GetDLLVersion()  returns 51012 (0000ms, 0585ms total)
T19170 000:697 JLINK_GetFirmwareString(...) (0000ms, 0585ms total)
T19170 000:716 JLINK_GetDLLVersion()  returns 51012 (0000ms, 0585ms total)
T19170 000:716 JLINK_GetCompileDateTime() (0000ms, 0585ms total)
T19170 000:721 JLINK_GetFirmwareString(...) (0000ms, 0585ms total)
T19170 000:727 JLINK_GetHardwareVersion()  returns 0x13880 (0000ms, 0585ms total)
T19170 000:745 JLINK_TIF_Select(JLINKARM_TIF_JTAG)  returns 0x00 (0004ms, 0589ms total)
T19170 000:749 JLINK_SetSpeed(5000) (0001ms, 0590ms total)
T19170 000:750 JLINK_GetIdData(...) >0x2F8 JTAG>TotalIRLen = 9, IRPrint = 0x0011 >0x30 JTAG> >0x210 JTAG> >0x40 JTAG> >0x40 JTAG> >0x40 JTAG> >0x30 JTAG> >0x40 JTAG> >0x40 JTAG> >0x40 JTAG> >0x40 JTAG> >0x40 JTAG> >0x40 JTAG> >0x40 JTAG> >0x40 JTAG> >0x40 JTAG> >0x40 JTAG> >0x40 JTAG> >0x40 JTAG> >0x40 JTAG> >0x40 JTAG> >0x40 JTAG> >0x40 JTAG> >0x40 JTAG> >0x40 JTAG> >0x40 JTAG> >0x40 JTAG> >0x40 JTAG> >0x40 JTAG> >0x2F8 JTAG>TotalIRLen = 9, IRPrint = 0x0011 >0x30 JTAG> >0x210 JTAG> >0x70 JTAG>
 >0x50 JTAG> >0x40 JTAG> >0x50 JTAG> >0x80 JTAG> >0x40 JTAG> >0x30 JTAG> >0x40 JTAG> >0x40 JTAG> >0x30 JTAG> >0x40 JTAG> >0x50 JTAG>Found Cortex-M3 r1p1, Little endian. -- CPU_ReadMem(4 bytes @ 0xE000EDF0) -- CPU_WriteMem(4 bytes @ 0xE000EDF0) -- CPU_ReadMem(4 bytes @ 0xE0002000)FPUnit: 6 code (BP) slots and 2 literal slots -- CPU_ReadMem(4 bytes @ 0xE000EDFC) -- CPU_WriteMem(4 bytes @ 0xE000EDFC) -- CPU_ReadMem(4 bytes @ 0xE0001000) -- CPU_WriteMem(4 bytes @ 0xE0001000)
 -- CPU_ReadMem(4 bytes @ 0xE000ED88) -- CPU_WriteMem(4 bytes @ 0xE000ED88) -- CPU_ReadMem(4 bytes @ 0xE000ED88) -- CPU_WriteMem(4 bytes @ 0xE000ED88)CoreSight components:ROMTbl 0 @ E00FF000 -- CPU_ReadMem(16 bytes @ 0xE00FF000) -- CPU_ReadMem(16 bytes @ 0xE000EFF0) -- CPU_ReadMem(16 bytes @ 0xE000EFE0)ROMTbl 0 [0]: FFF0F000, CID: B105E00D, PID: 001BB000 SCS -- CPU_ReadMem(16 bytes @ 0xE0001FF0) -- CPU_ReadMem(16 bytes @ 0xE0001FE0)ROMTbl 0 [1]: FFF02000, CID: B105E00D, PID: 001BB002 DWT
 -- CPU_ReadMem(16 bytes @ 0xE0002FF0) -- CPU_ReadMem(16 bytes @ 0xE0002FE0)ROMTbl 0 [2]: FFF03000, CID: B105E00D, PID: 000BB003 FPB -- CPU_ReadMem(16 bytes @ 0xE0000FF0) -- CPU_ReadMem(16 bytes @ 0xE0000FE0)ROMTbl 0 [3]: FFF01000, CID: B105E00D, PID: 001BB001 ITM -- CPU_ReadMem(16 bytes @ 0xE00FF010) -- CPU_ReadMem(16 bytes @ 0xE0040FF0) -- CPU_ReadMem(16 bytes @ 0xE0040FE0)ROMTbl 0 [4]: FFF41000, CID: B105900D, PID: 001BB923 TPIU-Lite -- CPU_ReadMem(16 bytes @ 0xE0041FF0)
 -- CPU_ReadMem(16 bytes @ 0xE0041FE0)ROMTbl 0 [5]: FFF42000, CID: B105900D, PID: 101BB924 ETM-M3 ScanLen=9 NumDevices=2 aId[0]=0x3BA00477 aIrRead[0]=0 aScanLen[0]=0 aScanRead[0]=0 (0159ms, 0749ms total)
T19170 000:910 JLINK_JTAG_GetDeviceID(DeviceIndex = 0)  returns 0x3BA00477 (0000ms, 0749ms total)
T19170 000:910 JLINK_JTAG_GetDeviceInfo(DeviceIndex = 0)  returns 0x00 (0000ms, 0749ms total)
T19170 000:910 JLINK_JTAG_GetDeviceID(DeviceIndex = 1)  returns 0x6414041 (0000ms, 0749ms total)
T19170 000:910 JLINK_JTAG_GetDeviceInfo(DeviceIndex = 1)  returns 0x00 (0000ms, 0749ms total)
T19170 000:910 JLINK_GetDLLVersion()  returns 51012 (0000ms, 0749ms total)
T19170 000:910 JLINK_CORE_GetFound()  returns 0x30000FF (0000ms, 0749ms total)
T19170 000:910 JLINK_GetDebugInfo(0x100) -- Value=0xE00FF003  returns 0x00 (0000ms, 0749ms total)
T19170 000:919 JLINK_GetDebugInfo(0x100) -- Value=0xE00FF003  returns 0x00 (0000ms, 0749ms total)
T19170 000:919 JLINK_GetDebugInfo(0x101) -- Value=0xE0041000  returns 0x00 (0000ms, 0749ms total)
T19170 000:919 JLINK_GetDebugInfo(0x102) -- Value=0x00000000  returns 0x00 (0000ms, 0749ms total)
T19170 000:919 JLINK_GetDebugInfo(0x103) -- Value=0xE0040000  returns 0x00 (0000ms, 0749ms total)
T19170 000:919 JLINK_GetDebugInfo(0x104) -- Value=0xE0000000  returns 0x00 (0000ms, 0749ms total)
T19170 000:919 JLINK_GetDebugInfo(0x105) -- Value=0xE0001000  returns 0x00 (0000ms, 0749ms total)
T19170 000:919 JLINK_GetDebugInfo(0x106) -- Value=0xE0002000  returns 0x00 (0000ms, 0749ms total)
T19170 000:919 JLINK_GetDebugInfo(0x107) -- Value=0xE000E000  returns 0x00 (0000ms, 0749ms total)
T19170 000:919 JLINK_GetDebugInfo(0x10C) -- Value=0xE000EDF0  returns 0x00 (0000ms, 0749ms total)
T19170 000:919 JLINK_ReadMemU32(0xE000ED00, 0x0001 Items, ...) -- CPU is running -- CPU_ReadMem(4 bytes @ 0xE000ED00) - Data: 31 C2 1F 41  returns 0x01 (0002ms, 0751ms total)
T19170 000:921 JLINK_SetResetType(JLINKARM_RESET_TYPE_NORMAL)  returns JLINKARM_RESET_TYPE_NORMAL (0000ms, 0751ms total)
T19170 000:921 JLINK_Reset() -- CPU is running -- CPU_WriteMem(4 bytes @ 0xE000EDF0) -- CPU is running -- CPU_WriteMem(4 bytes @ 0xE000EDFC) -- CPU is running -- CPU_WriteMem(4 bytes @ 0xE000ED0C) -- CPU is running -- CPU_ReadMem(4 bytes @ 0xE000EDF0) -- CPU is running -- CPU_ReadMem(4 bytes @ 0xE000EDF0) -- CPU is running -- CPU_WriteMem(4 bytes @ 0xE000EDF0) -- CPU is running -- CPU_WriteMem(4 bytes @ 0xE000EDFC) -- CPU is running -- CPU_ReadMem(4 bytes @ 0xE000EDF0) >0x80 JTAG> >0x40 JTAG> >0x30 JTAG>
 >0x40 JTAG> >0x50 JTAG> >0x40 JTAG> -- CPU_WriteMem(4 bytes @ 0xE000EDFC) -- CPU_WriteMem(4 bytes @ 0xE0001028) -- CPU_WriteMem(4 bytes @ 0xE0001038) -- CPU_WriteMem(4 bytes @ 0xE0001048) -- CPU_WriteMem(4 bytes @ 0xE0001058) -- CPU_WriteMem(4 bytes @ 0xE0002000) -- CPU_ReadMem(4 bytes @ 0xE000EDFC) -- CPU_ReadMem(4 bytes @ 0xE0001000) (0038ms, 0789ms total)
T19170 000:959 JLINK_Halt()  returns 0x00 (0000ms, 0789ms total)
T19170 000:959 JLINK_IsHalted()  returns TRUE (0000ms, 0789ms total)
T19170 000:959 JLINK_ReadMemU32(0xE000EDF0, 0x0001 Items, ...) -- CPU_ReadMem(4 bytes @ 0xE000EDF0) - Data: 03 00 03 00  returns 0x01 (0002ms, 0791ms total)
T19170 000:961 JLINK_WriteU32(0xE000EDF0, 0xA05F0003) -- CPU_WriteMem(4 bytes @ 0xE000EDF0)  returns 0x00 (0000ms, 0791ms total)
T19170 000:961 JLINK_WriteU32(0xE000EDFC, 0x01000000) -- CPU_WriteMem(4 bytes @ 0xE000EDFC)  returns 0x00 (0001ms, 0792ms total)
T19170 000:992 JLINK_GetHWStatus(...)  returns 0x00 (0001ms, 0793ms total)
T19170 001:022 JLINK_GetNumBPUnits(Type = 0xFFFFFF00)  returns 0x06 (0000ms, 0793ms total)
T19170 001:022 JLINK_GetNumBPUnits(Type = 0xF0)  returns 0x2000 (0000ms, 0793ms total)
T19170 001:022 JLINK_GetNumWPUnits()  returns 0x04 (0000ms, 0793ms total)
T19170 001:041 JLINK_GetSpeed()  returns 0x12C0 (0000ms, 0793ms total)
T19170 001:056 JLINK_ReadMemU32(0xE000E004, 0x0001 Items, ...) -- CPU_ReadMem(4 bytes @ 0xE000E004) - Data: 01 00 00 00  returns 0x01 (0002ms, 0795ms total)
T19170 001:058 JLINK_ReadMemU32(0xE000E004, 0x0001 Items, ...) -- CPU_ReadMem(4 bytes @ 0xE000E004) - Data: 01 00 00 00  returns 0x01 (0001ms, 0796ms total)
T19170 001:059 JLINK_WriteMem(0xE0001000, 0x001C Bytes, ...) - Data: 01 00 00 00 00 00 00 00 00 00 00 00 00 00 00 00 ... -- CPU_WriteMem(28 bytes @ 0xE0001000)  returns 0x1C (0002ms, 0798ms total)
T19170 001:062 JLINK_ReadMem (0xE0001000, 0x001C Bytes, ...) -- CPU_ReadMem(28 bytes @ 0xE0001000) - Data: 01 00 00 40 00 00 00 00 00 00 00 00 00 00 00 00 ...  returns 0x00 (0001ms, 0799ms total)
T19170 001:063 JLINK_Halt()  returns 0x00 (0000ms, 0799ms total)
T19170 001:063 JLINK_IsHalted()  returns TRUE (0000ms, 0799ms total)
T19170 001:071 JLINK_WriteMem(0x20000000, 0x0164 Bytes, ...) - Data: 00 BE 0A E0 0D 78 2D 06 68 40 08 24 40 00 00 D3 ... -- CPU_WriteMem(356 bytes @ 0x20000000)  returns 0x164 (0005ms, 0804ms total)
T19170 001:077 JLINK_WriteReg(R0, 0x08000000)  returns 0x00 (0000ms, 0804ms total)
T19170 001:077 JLINK_WriteReg(R1, 0x00B71B00)  returns 0x00 (0000ms, 0804ms total)
T19170 001:077 JLINK_WriteReg(R2, 0x00000001)  returns 0x00 (0000ms, 0804ms total)
T19170 001:077 JLINK_WriteReg(R3, 0x00000000)  returns 0x00 (0000ms, 0804ms total)
T19170 001:077 JLINK_WriteReg(R4, 0x00000000)  returns 0x00 (0000ms, 0804ms total)
T19170 001:077 JLINK_WriteReg(R5, 0x00000000)  returns 0x00 (0000ms, 0804ms total)
T19170 001:077 JLINK_WriteReg(R6, 0x00000000)  returns 0x00 (0000ms, 0804ms total)
T19170 001:077 JLINK_WriteReg(R7, 0x00000000)  returns 0x00 (0000ms, 0804ms total)
T19170 001:077 JLINK_WriteReg(R8, 0x00000000)  returns 0x00 (0000ms, 0804ms total)
T19170 001:077 JLINK_WriteReg(R9, 0x20000160)  returns 0x00 (0000ms, 0804ms total)
T19170 001:077 JLINK_WriteReg(R10, 0x00000000)  returns 0x00 (0000ms, 0804ms total)
T19170 001:077 JLINK_WriteReg(R11, 0x00000000)  returns 0x00 (0000ms, 0804ms total)
T19170 001:077 JLINK_WriteReg(R12, 0x00000000)  returns 0x00 (0000ms, 0804ms total)
T19170 001:077 JLINK_WriteReg(R13 (SP), 0x20000800)  returns 0x00 (0000ms, 0804ms total)
T19170 001:077 JLINK_WriteReg(R14, 0x20000001)  returns 0x00 (0000ms, 0804ms total)
T19170 001:077 JLINK_WriteReg(R15 (PC), 0x20000038)  returns 0x00 (0000ms, 0804ms total)
T19170 001:077 JLINK_WriteReg(XPSR, 0x01000000)  returns 0x00 (0000ms, 0804ms total)
T19170 001:077 JLINK_WriteReg(MSP, 0x20000800)  returns 0x00 (0001ms, 0805ms total)
T19170 001:078 JLINK_WriteReg(PSP, 0x20000800)  returns 0x00 (0000ms, 0805ms total)
T19170 001:078 JLINK_WriteReg(CFBP, 0x00000000)  returns 0x00 (0000ms, 0805ms total)
T19170 001:078 JLINK_SetBPEx(Addr = 0x20000000, Type = 0xFFFFFFF2) -- CPU_ReadMem(2 bytes @ 0x20000000)  returns 0x00000001 (0001ms, 0806ms total)
T19170 001:079 JLINK_Go() -- CPU_WriteMem(2 bytes @ 0x20000000) -- CPU_ReadMem(4 bytes @ 0xE0001000) -- CPU_WriteMem(4 bytes @ 0xE0002008) -- CPU_WriteMem(4 bytes @ 0xE000200C) -- CPU_WriteMem(4 bytes @ 0xE0002010) -- CPU_WriteMem(4 bytes @ 0xE0002014) -- CPU_WriteMem(4 bytes @ 0xE0002018) -- CPU_WriteMem(4 bytes @ 0xE000201C) -- CPU_WriteMem(4 bytes @ 0xE0001004) (0008ms, 0814ms total)
T19170 001:088 JLINK_IsHalted() -- CPU_ReadMem(2 bytes @ 0x20000000)  returns TRUE (0005ms, 0820ms total)
T19170 001:093 JLINK_ReadReg(R15 (PC))  returns 0x20000000 (0000ms, 0815ms total)
T19170 001:093 JLINK_ClrBPEx(BPHandle = 0x00000001)  returns 0x00 (0000ms, 0815ms total)
T19170 001:093 JLINK_ReadReg(R0)  returns 0x00000000 (0000ms, 0815ms total)
T19170 001:094 JLINK_WriteReg(R0, 0x08000000)  returns 0x00 (0000ms, 0815ms total)
T19170 001:094 JLINK_WriteReg(R1, 0x00B71B00)  returns 0x00 (0000ms, 0815ms total)
T19170 001:094 JLINK_WriteReg(R2, 0x00000001)  returns 0x00 (0000ms, 0815ms total)
T19170 001:094 JLINK_WriteReg(R3, 0x00000000)  returns 0x00 (0000ms, 0815ms total)
T19170 001:094 JLINK_WriteReg(R4, 0x00000000)  returns 0x00 (0000ms, 0815ms total)
T19170 001:094 JLINK_WriteReg(R5, 0x00000000)  returns 0x00 (0000ms, 0815ms total)
T19170 001:094 JLINK_WriteReg(R6, 0x00000000)  returns 0x00 (0000ms, 0815ms total)
T19170 001:094 JLINK_WriteReg(R7, 0x00000000)  returns 0x00 (0000ms, 0815ms total)
T19170 001:094 JLINK_WriteReg(R8, 0x00000000)  returns 0x00 (0000ms, 0815ms total)
T19170 001:094 JLINK_WriteReg(R9, 0x20000160)  returns 0x00 (0000ms, 0815ms total)
T19170 001:094 JLINK_WriteReg(R10, 0x00000000)  returns 0x00 (0000ms, 0815ms total)
T19170 001:094 JLINK_WriteReg(R11, 0x00000000)  returns 0x00 (0000ms, 0815ms total)
T19170 001:094 JLINK_WriteReg(R12, 0x00000000)  returns 0x00 (0000ms, 0815ms total)
T19170 001:094 JLINK_WriteReg(R13 (SP), 0x20000800)  returns 0x00 (0000ms, 0815ms total)
T19170 001:094 JLINK_WriteReg(R14, 0x20000001)  returns 0x00 (0000ms, 0815ms total)
T19170 001:094 JLINK_WriteReg(R15 (PC), 0x2000007C)  returns 0x00 (0000ms, 0815ms total)
T19170 001:095 JLINK_WriteReg(XPSR, 0x01000000)  returns 0x00 (0000ms, 0816ms total)
T19170 001:095 JLINK_WriteReg(MSP, 0x20000800)  returns 0x00 (0000ms, 0816ms total)
T19170 001:095 JLINK_WriteReg(PSP, 0x20000800)  returns 0x00 (0000ms, 0816ms total)
T19170 001:095 JLINK_WriteReg(CFBP, 0x00000000)  returns 0x00 (0000ms, 0816ms total)
T19170 001:095 JLINK_SetBPEx(Addr = 0x20000000, Type = 0xFFFFFFF2)  returns 0x00000002 (0000ms, 0816ms total)
T19170 001:095 JLINK_Go() -- CPU_ReadMem(4 bytes @ 0xE0001000) (0003ms, 0819ms total)
T19170 001:098 JLINK_IsHalted()  returns FALSE (0001ms, 0820ms total)
T19170 001:222 JLINK_IsHalted() -- CPU_ReadMem(2 bytes @ 0x20000000)  returns TRUE (0004ms, 0823ms total)
T19170 001:226 JLINK_ReadReg(R15 (PC))  returns 0x20000000 (0000ms, 0819ms total)
T19170 001:226 JLINK_ClrBPEx(BPHandle = 0x00000002)  returns 0x00 (0000ms, 0819ms total)
T19170 001:226 JLINK_ReadReg(R0)  returns 0x00000000 (0000ms, 0819ms total)
T19170 001:279 JLINK_WriteReg(R0, 0x00000001)  returns 0x00 (0000ms, 0819ms total)
T19170 001:279 JLINK_WriteReg(R1, 0x00B71B00)  returns 0x00 (0000ms, 0819ms total)
T19170 001:279 JLINK_WriteReg(R2, 0x00000001)  returns 0x00 (0000ms, 0819ms total)
T19170 001:279 JLINK_WriteReg(R3, 0x00000000)  returns 0x00 (0000ms, 0819ms total)
T19170 001:279 JLINK_WriteReg(R4, 0x00000000)  returns 0x00 (0000ms, 0819ms total)
T19170 001:279 JLINK_WriteReg(R5, 0x00000000)  returns 0x00 (0000ms, 0819ms total)
T19170 001:279 JLINK_WriteReg(R6, 0x00000000)  returns 0x00 (0000ms, 0819ms total)
T19170 001:279 JLINK_WriteReg(R7, 0x00000000)  returns 0x00 (0000ms, 0819ms total)
T19170 001:279 JLINK_WriteReg(R8, 0x00000000)  returns 0x00 (0000ms, 0819ms total)
T19170 001:280 JLINK_WriteReg(R9, 0x20000160)  returns 0x00 (0000ms, 0819ms total)
T19170 001:280 JLINK_WriteReg(R10, 0x00000000)  returns 0x00 (0000ms, 0819ms total)
T19170 001:280 JLINK_WriteReg(R11, 0x00000000)  returns 0x00 (0000ms, 0819ms total)
T19170 001:280 JLINK_WriteReg(R12, 0x00000000)  returns 0x00 (0000ms, 0819ms total)
T19170 001:280 JLINK_WriteReg(R13 (SP), 0x20000800)  returns 0x00 (0000ms, 0819ms total)
T19170 001:280 JLINK_WriteReg(R14, 0x20000001)  returns 0x00 (0000ms, 0819ms total)
T19170 001:280 JLINK_WriteReg(R15 (PC), 0x2000006A)  returns 0x00 (0000ms, 0819ms total)
T19170 001:280 JLINK_WriteReg(XPSR, 0x01000000)  returns 0x00 (0000ms, 0819ms total)
T19170 001:280 JLINK_WriteReg(MSP, 0x20000800)  returns 0x00 (0000ms, 0819ms total)
T19170 001:280 JLINK_WriteReg(PSP, 0x20000800)  returns 0x00 (0000ms, 0819ms total)
T19170 001:280 JLINK_WriteReg(CFBP, 0x00000000)  returns 0x00 (0000ms, 0819ms total)
T19170 001:280 JLINK_SetBPEx(Addr = 0x20000000, Type = 0xFFFFFFF2)  returns 0x00000003 (0000ms, 0819ms total)
T19170 001:280 JLINK_Go() -- CPU_ReadMem(4 bytes @ 0xE0001000) (0003ms, 0822ms total)
T19170 001:283 JLINK_IsHalted() -- CPU_ReadMem(2 bytes @ 0x20000000)  returns TRUE (0004ms, 0826ms total)
T19170 001:287 JLINK_ReadReg(R15 (PC))  returns 0x20000000 (0001ms, 0823ms total)
T19170 001:288 JLINK_ClrBPEx(BPHandle = 0x00000003)  returns 0x00 (0000ms, 0823ms total)
T19170 001:288 JLINK_ReadReg(R0)  returns 0x00000000 (0000ms, 0823ms total)
T19170 001:295 JLINK_WriteMem(0x20000000, 0x0164 Bytes, ...) - Data: 00 BE 0A E0 0D 78 2D 06 68 40 08 24 40 00 00 D3 ... -- CPU_WriteMem(356 bytes @ 0x20000000)  returns 0x164 (0004ms, 0827ms total)
T19170 001:299 JLINK_WriteReg(R0, 0x08000000)  returns 0x00 (0000ms, 0827ms total)
T19170 001:299 JLINK_WriteReg(R1, 0x00B71B00)  returns 0x00 (0000ms, 0827ms total)
T19170 001:299 JLINK_WriteReg(R2, 0x00000002)  returns 0x00 (0000ms, 0827ms total)
T19170 001:299 JLINK_WriteReg(R3, 0x00000000)  returns 0x00 (0000ms, 0827ms total)
T19170 001:299 JLINK_WriteReg(R4, 0x00000000)  returns 0x00 (0000ms, 0827ms total)
T19170 001:299 JLINK_WriteReg(R5, 0x00000000)  returns 0x00 (0000ms, 0827ms total)
T19170 001:299 JLINK_WriteReg(R6, 0x00000000)  returns 0x00 (0000ms, 0827ms total)
T19170 001:299 JLINK_WriteReg(R7, 0x00000000)  returns 0x00 (0000ms, 0827ms total)
T19170 001:299 JLINK_WriteReg(R8, 0x00000000)  returns 0x00 (0000ms, 0827ms total)
T19170 001:299 JLINK_WriteReg(R9, 0x20000160)  returns 0x00 (0000ms, 0827ms total)
T19170 001:299 JLINK_WriteReg(R10, 0x00000000)  returns 0x00 (0000ms, 0827ms total)
T19170 001:299 JLINK_WriteReg(R11, 0x00000000)  returns 0x00 (0000ms, 0827ms total)
T19170 001:299 JLINK_WriteReg(R12, 0x00000000)  returns 0x00 (0000ms, 0827ms total)
T19170 001:299 JLINK_WriteReg(R13 (SP), 0x20000800)  returns 0x00 (0000ms, 0827ms total)
T19170 001:299 JLINK_WriteReg(R14, 0x20000001)  returns 0x00 (0000ms, 0827ms total)
T19170 001:299 JLINK_WriteReg(R15 (PC), 0x20000038)  returns 0x00 (0000ms, 0827ms total)
T19170 001:299 JLINK_WriteReg(XPSR, 0x01000000)  returns 0x00 (0000ms, 0827ms total)
T19170 001:299 JLINK_WriteReg(MSP, 0x20000800)  returns 0x00 (0001ms, 0828ms total)
T19170 001:300 JLINK_WriteReg(PSP, 0x20000800)  returns 0x00 (0000ms, 0828ms total)
T19170 001:300 JLINK_WriteReg(CFBP, 0x00000000)  returns 0x00 (0000ms, 0828ms total)
T19170 001:300 JLINK_SetBPEx(Addr = 0x20000000, Type = 0xFFFFFFF2) -- CPU_ReadMem(2 bytes @ 0x20000000)  returns 0x00000004 (0001ms, 0829ms total)
T19170 001:301 JLINK_Go() -- CPU_WriteMem(2 bytes @ 0x20000000) -- CPU_ReadMem(4 bytes @ 0xE0001000) (0004ms, 0833ms total)
T19170 001:305 JLINK_IsHalted() -- CPU_ReadMem(2 bytes @ 0x20000000)  returns TRUE (0004ms, 0837ms total)
T19170 001:309 JLINK_ReadReg(R15 (PC))  returns 0x20000000 (0000ms, 0833ms total)
T19170 001:309 JLINK_ClrBPEx(BPHandle = 0x00000004)  returns 0x00 (0000ms, 0833ms total)
T19170 001:309 JLINK_ReadReg(R0)  returns 0x00000000 (0000ms, 0833ms total)
T19170 001:310 JLINK_WriteMem(0x20000164, 0x0400 Bytes, ...) - Data: D8 3F 00 20 45 01 00 08 61 23 00 08 63 23 00 08 ... -- CPU_WriteMem(1024 bytes @ 0x20000164)  returns 0x400 (0008ms, 0841ms total)
T19170 001:318 JLINK_WriteReg(R0, 0x08000000)  returns 0x00 (0000ms, 0841ms total)
T19170 001:318 JLINK_WriteReg(R1, 0x00000400)  returns 0x00 (0000ms, 0841ms total)
T19170 001:318 JLINK_WriteReg(R2, 0x20000164)  returns 0x00 (0000ms, 0841ms total)
T19170 001:318 JLINK_WriteReg(R3, 0x00000000)  returns 0x00 (0000ms, 0841ms total)
T19170 001:318 JLINK_WriteReg(R4, 0x00000000)  returns 0x00 (0000ms, 0841ms total)
T19170 001:318 JLINK_WriteReg(R5, 0x00000000)  returns 0x00 (0000ms, 0841ms total)
T19170 001:318 JLINK_WriteReg(R6, 0x00000000)  returns 0x00 (0000ms, 0841ms total)
T19170 001:318 JLINK_WriteReg(R7, 0x00000000)  returns 0x00 (0000ms, 0841ms total)
T19170 001:318 JLINK_WriteReg(R8, 0x00000000)  returns 0x00 (0000ms, 0841ms total)
T19170 001:318 JLINK_WriteReg(R9, 0x20000160)  returns 0x00 (0000ms, 0841ms total)
T19170 001:318 JLINK_WriteReg(R10, 0x00000000)  returns 0x00 (0001ms, 0842ms total)
T19170 001:319 JLINK_WriteReg(R11, 0x00000000)  returns 0x00 (0000ms, 0842ms total)
T19170 001:319 JLINK_WriteReg(R12, 0x00000000)  returns 0x00 (0000ms, 0842ms total)
T19170 001:319 JLINK_WriteReg(R13 (SP), 0x20000800)  returns 0x00 (0000ms, 0842ms total)
T19170 001:319 JLINK_WriteReg(R14, 0x20000001)  returns 0x00 (0000ms, 0842ms total)
T19170 001:319 JLINK_WriteReg(R15 (PC), 0x200000F4)  returns 0x00 (0000ms, 0842ms total)
T19170 001:319 JLINK_WriteReg(XPSR, 0x01000000)  returns 0x00 (0000ms, 0842ms total)
T19170 001:319 JLINK_WriteReg(MSP, 0x20000800)  returns 0x00 (0000ms, 0842ms total)
T19170 001:319 JLINK_WriteReg(PSP, 0x20000800)  returns 0x00 (0000ms, 0842ms total)
T19170 001:319 JLINK_WriteReg(CFBP, 0x00000000)  returns 0x00 (0000ms, 0842ms total)
T19170 001:319 JLINK_SetBPEx(Addr = 0x20000000, Type = 0xFFFFFFF2)  returns 0x00000005 (0000ms, 0842ms total)
T19170 001:319 JLINK_Go() -- CPU_ReadMem(4 bytes @ 0xE0001000) (0003ms, 0845ms total)
T19170 001:322 JLINK_IsHalted()  returns FALSE (0000ms, 0845ms total)
T19170 001:357 JLINK_IsHalted() -- CPU_ReadMem(2 bytes @ 0x20000000)  returns TRUE (0004ms, 0849ms total)
T19170 001:361 JLINK_ReadReg(R15 (PC))  returns 0x20000000 (0000ms, 0845ms total)
T19170 001:361 JLINK_ClrBPEx(BPHandle = 0x00000005)  returns 0x00 (0000ms, 0845ms total)
T19170 001:361 JLINK_ReadReg(R0)  returns 0x00000000 (0000ms, 0845ms total)
T19170 001:362 JLINK_WriteMem(0x20000164, 0x0400 Bytes, ...) - Data: 09 69 21 F0 04 01 4F F0 E0 22 11 61 70 47 00 00 ... -- CPU_WriteMem(1024 bytes @ 0x20000164)  returns 0x400 (0009ms, 0854ms total)
T19170 001:371 JLINK_WriteReg(R0, 0x08000400)  returns 0x00 (0000ms, 0854ms total)
T19170 001:371 JLINK_WriteReg(R1, 0x00000400)  returns 0x00 (0000ms, 0854ms total)
T19170 001:371 JLINK_WriteReg(R2, 0x20000164)  returns 0x00 (0000ms, 0854ms total)
T19170 001:371 JLINK_WriteReg(R3, 0x00000000)  returns 0x00 (0000ms, 0854ms total)
T19170 001:371 JLINK_WriteReg(R4, 0x00000000)  returns 0x00 (0000ms, 0854ms total)
T19170 001:371 JLINK_WriteReg(R5, 0x00000000)  returns 0x00 (0000ms, 0854ms total)
T19170 001:371 JLINK_WriteReg(R6, 0x00000000)  returns 0x00 (0000ms, 0854ms total)
T19170 001:371 JLINK_WriteReg(R7, 0x00000000)  returns 0x00 (0000ms, 0854ms total)
T19170 001:371 JLINK_WriteReg(R8, 0x00000000)  returns 0x00 (0000ms, 0854ms total)
T19170 001:371 JLINK_WriteReg(R9, 0x20000160)  returns 0x00 (0000ms, 0854ms total)
T19170 001:371 JLINK_WriteReg(R10, 0x00000000)  returns 0x00 (0000ms, 0854ms total)
T19170 001:371 JLINK_WriteReg(R11, 0x00000000)  returns 0x00 (0000ms, 0854ms total)
T19170 001:371 JLINK_WriteReg(R12, 0x00000000)  returns 0x00 (0000ms, 0854ms total)
T19170 001:371 JLINK_WriteReg(R13 (SP), 0x20000800)  returns 0x00 (0000ms, 0854ms total)
T19170 001:371 JLINK_WriteReg(R14, 0x20000001)  returns 0x00 (0001ms, 0855ms total)
T19170 001:372 JLINK_WriteReg(R15 (PC), 0x200000F4)  returns 0x00 (0000ms, 0855ms total)
T19170 001:372 JLINK_WriteReg(XPSR, 0x01000000)  returns 0x00 (0000ms, 0855ms total)
T19170 001:372 JLINK_WriteReg(MSP, 0x20000800)  returns 0x00 (0000ms, 0855ms total)
T19170 001:372 JLINK_WriteReg(PSP, 0x20000800)  returns 0x00 (0000ms, 0855ms total)
T19170 001:372 JLINK_WriteReg(CFBP, 0x00000000)  returns 0x00 (0000ms, 0855ms total)
T19170 001:372 JLINK_SetBPEx(Addr = 0x20000000, Type = 0xFFFFFFF2)  returns 0x00000006 (0000ms, 0855ms total)
T19170 001:372 JLINK_Go() -- CPU_ReadMem(4 bytes @ 0xE0001000) (0003ms, 0858ms total)
T19170 001:375 JLINK_IsHalted()  returns FALSE (0001ms, 0859ms total)
T19170 001:417 JLINK_IsHalted() -- CPU_ReadMem(2 bytes @ 0x20000000)  returns TRUE (0005ms, 0863ms total)
T19170 001:422 JLINK_ReadReg(R15 (PC))  returns 0x20000000 (0000ms, 0858ms total)
T19170 001:422 JLINK_ClrBPEx(BPHandle = 0x00000006)  returns 0x00 (0000ms, 0858ms total)
T19170 001:422 JLINK_ReadReg(R0)  returns 0x00000000 (0000ms, 0858ms total)
T19170 001:424 JLINK_WriteMem(0x20000164, 0x0400 Bytes, ...) - Data: FF 0F 07 D0 0A 48 0E 30 A0 F8 00 90 E8 02 FF F7 ... -- CPU_WriteMem(1024 bytes @ 0x20000164)  returns 0x400 (0008ms, 0866ms total)
T19170 001:432 JLINK_WriteReg(R0, 0x08000800)  returns 0x00 (0000ms, 0866ms total)
T19170 001:432 JLINK_WriteReg(R1, 0x00000400)  returns 0x00 (0000ms, 0866ms total)
T19170 001:432 JLINK_WriteReg(R2, 0x20000164)  returns 0x00 (0000ms, 0866ms total)
T19170 001:432 JLINK_WriteReg(R3, 0x00000000)  returns 0x00 (0000ms, 0866ms total)
T19170 001:432 JLINK_WriteReg(R4, 0x00000000)  returns 0x00 (0000ms, 0866ms total)
T19170 001:432 JLINK_WriteReg(R5, 0x00000000)  returns 0x00 (0001ms, 0867ms total)
T19170 001:433 JLINK_WriteReg(R6, 0x00000000)  returns 0x00 (0000ms, 0867ms total)
T19170 001:433 JLINK_WriteReg(R7, 0x00000000)  returns 0x00 (0000ms, 0867ms total)
T19170 001:433 JLINK_WriteReg(R8, 0x00000000)  returns 0x00 (0000ms, 0867ms total)
T19170 001:433 JLINK_WriteReg(R9, 0x20000160)  returns 0x00 (0000ms, 0867ms total)
T19170 001:433 JLINK_WriteReg(R10, 0x00000000)  returns 0x00 (0000ms, 0867ms total)
T19170 001:433 JLINK_WriteReg(R11, 0x00000000)  returns 0x00 (0000ms, 0867ms total)
T19170 001:433 JLINK_WriteReg(R12, 0x00000000)  returns 0x00 (0000ms, 0867ms total)
T19170 001:433 JLINK_WriteReg(R13 (SP), 0x20000800)  returns 0x00 (0000ms, 0867ms total)
T19170 001:433 JLINK_WriteReg(R14, 0x20000001)  returns 0x00 (0000ms, 0867ms total)
T19170 001:433 JLINK_WriteReg(R15 (PC), 0x200000F4)  returns 0x00 (0000ms, 0867ms total)
T19170 001:433 JLINK_WriteReg(XPSR, 0x01000000)  returns 0x00 (0000ms, 0867ms total)
T19170 001:433 JLINK_WriteReg(MSP, 0x20000800)  returns 0x00 (0000ms, 0867ms total)
T19170 001:433 JLINK_WriteReg(PSP, 0x20000800)  returns 0x00 (0001ms, 0868ms total)
T19170 001:434 JLINK_WriteReg(CFBP, 0x00000000)  returns 0x00 (0000ms, 0868ms total)
T19170 001:434 JLINK_SetBPEx(Addr = 0x20000000, Type = 0xFFFFFFF2)  returns 0x00000007 (0000ms, 0868ms total)
T19170 001:434 JLINK_Go() -- CPU_ReadMem(4 bytes @ 0xE0001000) (0003ms, 0871ms total)
T19170 001:437 JLINK_IsHalted()  returns FALSE (0001ms, 0872ms total)
T19170 001:440 JLINK_IsHalted()  returns FALSE (0001ms, 0872ms total)
T19170 001:443 JLINK_IsHalted()  returns FALSE (0001ms, 0872ms total)
T19170 001:446 JLINK_IsHalted()  returns FALSE (0001ms, 0872ms total)
T19170 001:449 JLINK_IsHalted()  returns FALSE (0001ms, 0872ms total)
T19170 001:452 JLINK_IsHalted()  returns FALSE (0001ms, 0872ms total)
T19170 001:455 JLINK_IsHalted()  returns FALSE (0001ms, 0872ms total)
T19170 001:458 JLINK_IsHalted()  returns FALSE (0001ms, 0872ms total)
T19170 001:461 JLINK_IsHalted()  returns FALSE (0001ms, 0872ms total)
T19170 001:464 JLINK_IsHalted()  returns FALSE (0001ms, 0872ms total)
T19170 001:467 JLINK_IsHalted()  returns FALSE (0001ms, 0872ms total)
T19170 001:470 JLINK_IsHalted() -- CPU_ReadMem(2 bytes @ 0x20000000)  returns TRUE (0005ms, 0876ms total)
T19170 001:475 JLINK_ReadReg(R15 (PC))  returns 0x20000000 (0000ms, 0871ms total)
T19170 001:475 JLINK_ClrBPEx(BPHandle = 0x00000007)  returns 0x00 (0000ms, 0871ms total)
T19170 001:475 JLINK_ReadReg(R0)  returns 0x00000000 (0000ms, 0871ms total)
T19170 001:476 JLINK_WriteMem(0x20000164, 0x0400 Bytes, ...) - Data: 70 47 0A B1 01 61 00 E0 41 61 70 47 C1 60 70 47 ... -- CPU_WriteMem(1024 bytes @ 0x20000164)  returns 0x400 (0009ms, 0880ms total)
T19170 001:485 JLINK_WriteReg(R0, 0x08000C00)  returns 0x00 (0000ms, 0880ms total)
T19170 001:485 JLINK_WriteReg(R1, 0x00000400)  returns 0x00 (0000ms, 0880ms total)
T19170 001:485 JLINK_WriteReg(R2, 0x20000164)  returns 0x00 (0000ms, 0880ms total)
T19170 001:485 JLINK_WriteReg(R3, 0x00000000)  returns 0x00 (0000ms, 0880ms total)
T19170 001:485 JLINK_WriteReg(R4, 0x00000000)  returns 0x00 (0000ms, 0880ms total)
T19170 001:485 JLINK_WriteReg(R5, 0x00000000)  returns 0x00 (0000ms, 0880ms total)
T19170 001:485 JLINK_WriteReg(R6, 0x00000000)  returns 0x00 (0000ms, 0880ms total)
T19170 001:485 JLINK_WriteReg(R7, 0x00000000)  returns 0x00 (0000ms, 0880ms total)
T19170 001:486 JLINK_WriteReg(R8, 0x00000000)  returns 0x00 (0000ms, 0881ms total)
T19170 001:486 JLINK_WriteReg(R9, 0x20000160)  returns 0x00 (0000ms, 0881ms total)
T19170 001:486 JLINK_WriteReg(R10, 0x00000000)  returns 0x00 (0000ms, 0881ms total)
T19170 001:486 JLINK_WriteReg(R11, 0x00000000)  returns 0x00 (0000ms, 0881ms total)
T19170 001:486 JLINK_WriteReg(R12, 0x00000000)  returns 0x00 (0000ms, 0881ms total)
T19170 001:486 JLINK_WriteReg(R13 (SP), 0x20000800)  returns 0x00 (0000ms, 0881ms total)
T19170 001:486 JLINK_WriteReg(R14, 0x20000001)  returns 0x00 (0000ms, 0881ms total)
T19170 001:486 JLINK_WriteReg(R15 (PC), 0x200000F4)  returns 0x00 (0000ms, 0881ms total)
T19170 001:486 JLINK_WriteReg(XPSR, 0x01000000)  returns 0x00 (0000ms, 0881ms total)
T19170 001:486 JLINK_WriteReg(MSP, 0x20000800)  returns 0x00 (0000ms, 0881ms total)
T19170 001:486 JLINK_WriteReg(PSP, 0x20000800)  returns 0x00 (0000ms, 0881ms total)
T19170 001:486 JLINK_WriteReg(CFBP, 0x00000000)  returns 0x00 (0000ms, 0881ms total)
T19170 001:486 JLINK_SetBPEx(Addr = 0x20000000, Type = 0xFFFFFFF2)  returns 0x00000008 (0000ms, 0881ms total)
T19170 001:486 JLINK_Go() -- CPU_ReadMem(4 bytes @ 0xE0001000) (0004ms, 0885ms total)
T19170 001:490 JLINK_IsHalted()  returns FALSE (0001ms, 0886ms total)
T19170 001:526 JLINK_IsHalted() -- CPU_ReadMem(2 bytes @ 0x20000000)  returns TRUE (0005ms, 0890ms total)
T19170 001:531 JLINK_ReadReg(R15 (PC))  returns 0x20000000 (0000ms, 0890ms total)
T19170 001:531 JLINK_ClrBPEx(BPHandle = 0x00000008)  returns 0x00 (0000ms, 0890ms total)
T19170 001:531 JLINK_ReadReg(R0)  returns 0x00000000 (0000ms, 0890ms total)
T19170 001:532 JLINK_WriteMem(0x20000164, 0x0400 Bytes, ...) - Data: 2E 4A 52 69 02 43 2D 4B 5A 61 04 E0 2B 4A 52 69 ... -- CPU_WriteMem(1024 bytes @ 0x20000164)  returns 0x400 (0008ms, 0898ms total)
T19170 001:540 JLINK_WriteReg(R0, 0x08001000)  returns 0x00 (0000ms, 0898ms total)
T19170 001:540 JLINK_WriteReg(R1, 0x00000400)  returns 0x00 (0000ms, 0898ms total)
T19170 001:540 JLINK_WriteReg(R2, 0x20000164)  returns 0x00 (0000ms, 0898ms total)
T19170 001:540 JLINK_WriteReg(R3, 0x00000000)  returns 0x00 (0000ms, 0898ms total)
T19170 001:540 JLINK_WriteReg(R4, 0x00000000)  returns 0x00 (0000ms, 0898ms total)
T19170 001:540 JLINK_WriteReg(R5, 0x00000000)  returns 0x00 (0000ms, 0898ms total)
T19170 001:540 JLINK_WriteReg(R6, 0x00000000)  returns 0x00 (0000ms, 0898ms total)
T19170 001:540 JLINK_WriteReg(R7, 0x00000000)  returns 0x00 (0000ms, 0898ms total)
T19170 001:540 JLINK_WriteReg(R8, 0x00000000)  returns 0x00 (0000ms, 0898ms total)
T19170 001:540 JLINK_WriteReg(R9, 0x20000160)  returns 0x00 (0000ms, 0898ms total)
T19170 001:540 JLINK_WriteReg(R10, 0x00000000)  returns 0x00 (0000ms, 0898ms total)
T19170 001:540 JLINK_WriteReg(R11, 0x00000000)  returns 0x00 (0001ms, 0899ms total)
T19170 001:541 JLINK_WriteReg(R12, 0x00000000)  returns 0x00 (0000ms, 0899ms total)
T19170 001:541 JLINK_WriteReg(R13 (SP), 0x20000800)  returns 0x00 (0000ms, 0899ms total)
T19170 001:541 JLINK_WriteReg(R14, 0x20000001)  returns 0x00 (0000ms, 0899ms total)
T19170 001:541 JLINK_WriteReg(R15 (PC), 0x200000F4)  returns 0x00 (0000ms, 0899ms total)
T19170 001:541 JLINK_WriteReg(XPSR, 0x01000000)  returns 0x00 (0000ms, 0899ms total)
T19170 001:541 JLINK_WriteReg(MSP, 0x20000800)  returns 0x00 (0000ms, 0899ms total)
T19170 001:541 JLINK_WriteReg(PSP, 0x20000800)  returns 0x00 (0000ms, 0899ms total)
T19170 001:541 JLINK_WriteReg(CFBP, 0x00000000)  returns 0x00 (0000ms, 0899ms total)
T19170 001:541 JLINK_SetBPEx(Addr = 0x20000000, Type = 0xFFFFFFF2)  returns 0x00000009 (0000ms, 0899ms total)
T19170 001:541 JLINK_Go() -- CPU_ReadMem(4 bytes @ 0xE0001000) (0003ms, 0902ms total)
T19170 001:544 JLINK_IsHalted()  returns FALSE (0000ms, 0902ms total)
T19170 001:546 JLINK_IsHalted()  returns FALSE (0001ms, 0903ms total)
T19170 001:549 JLINK_IsHalted()  returns FALSE (0001ms, 0903ms total)
T19170 001:551 JLINK_IsHalted()  returns FALSE (0001ms, 0903ms total)
T19170 001:554 JLINK_IsHalted()  returns FALSE (0001ms, 0903ms total)
T19170 001:557 JLINK_IsHalted()  returns FALSE (0000ms, 0902ms total)
T19170 001:559 JLINK_IsHalted()  returns FALSE (0001ms, 0903ms total)
T19170 001:562 JLINK_IsHalted()  returns FALSE (0000ms, 0902ms total)
T19170 001:564 JLINK_IsHalted()  returns FALSE (0000ms, 0902ms total)
T19170 001:566 JLINK_IsHalted()  returns FALSE (0001ms, 0903ms total)
T19170 001:569 JLINK_IsHalted()  returns FALSE (0001ms, 0903ms total)
T19170 001:572 JLINK_IsHalted()  returns FALSE (0001ms, 0903ms total)
T19170 001:575 JLINK_IsHalted() -- CPU_ReadMem(2 bytes @ 0x20000000)  returns TRUE (0004ms, 0906ms total)
T19170 001:580 JLINK_ReadReg(R15 (PC))  returns 0x20000000 (0000ms, 0902ms total)
T19170 001:580 JLINK_ClrBPEx(BPHandle = 0x00000009)  returns 0x00 (0000ms, 0902ms total)
T19170 001:580 JLINK_ReadReg(R0)  returns 0x00000000 (0000ms, 0902ms total)
T19170 001:581 JLINK_WriteMem(0x20000164, 0x0400 Bytes, ...) - Data: FF 75 2B 40 8D 89 06 EA 85 05 2B 43 CD 89 06 EA ... -- CPU_WriteMem(1024 bytes @ 0x20000164)  returns 0x400 (0008ms, 0910ms total)
T19170 001:589 JLINK_WriteReg(R0, 0x08001400)  returns 0x00 (0000ms, 0910ms total)
T19170 001:589 JLINK_WriteReg(R1, 0x00000400)  returns 0x00 (0000ms, 0910ms total)
T19170 001:589 JLINK_WriteReg(R2, 0x20000164)  returns 0x00 (0000ms, 0910ms total)
T19170 001:589 JLINK_WriteReg(R3, 0x00000000)  returns 0x00 (0000ms, 0910ms total)
T19170 001:589 JLINK_WriteReg(R4, 0x00000000)  returns 0x00 (0000ms, 0910ms total)
T19170 001:589 JLINK_WriteReg(R5, 0x00000000)  returns 0x00 (0000ms, 0910ms total)
T19170 001:589 JLINK_WriteReg(R6, 0x00000000)  returns 0x00 (0000ms, 0910ms total)
T19170 001:589 JLINK_WriteReg(R7, 0x00000000)  returns 0x00 (0000ms, 0910ms total)
T19170 001:589 JLINK_WriteReg(R8, 0x00000000)  returns 0x00 (0000ms, 0910ms total)
T19170 001:589 JLINK_WriteReg(R9, 0x20000160)  returns 0x00 (0001ms, 0911ms total)
T19170 001:590 JLINK_WriteReg(R10, 0x00000000)  returns 0x00 (0000ms, 0911ms total)
T19170 001:590 JLINK_WriteReg(R11, 0x00000000)  returns 0x00 (0000ms, 0911ms total)
T19170 001:590 JLINK_WriteReg(R12, 0x00000000)  returns 0x00 (0000ms, 0911ms total)
T19170 001:590 JLINK_WriteReg(R13 (SP), 0x20000800)  returns 0x00 (0000ms, 0911ms total)
T19170 001:590 JLINK_WriteReg(R14, 0x20000001)  returns 0x00 (0000ms, 0911ms total)
T19170 001:590 JLINK_WriteReg(R15 (PC), 0x200000F4)  returns 0x00 (0000ms, 0911ms total)
T19170 001:590 JLINK_WriteReg(XPSR, 0x01000000)  returns 0x00 (0000ms, 0911ms total)
T19170 001:590 JLINK_WriteReg(MSP, 0x20000800)  returns 0x00 (0000ms, 0911ms total)
T19170 001:590 JLINK_WriteReg(PSP, 0x20000800)  returns 0x00 (0000ms, 0911ms total)
T19170 001:590 JLINK_WriteReg(CFBP, 0x00000000)  returns 0x00 (0000ms, 0911ms total)
T19170 001:590 JLINK_SetBPEx(Addr = 0x20000000, Type = 0xFFFFFFF2)  returns 0x0000000A (0000ms, 0911ms total)
T19170 001:590 JLINK_Go() -- CPU_ReadMem(4 bytes @ 0xE0001000) (0003ms, 0914ms total)
T19170 001:593 JLINK_IsHalted()  returns FALSE (0001ms, 0915ms total)
T19170 001:596 JLINK_IsHalted()  returns FALSE (0000ms, 0914ms total)
T19170 001:627 JLINK_IsHalted() -- CPU_ReadMem(2 bytes @ 0x20000000)  returns TRUE (0005ms, 0919ms total)
T19170 001:632 JLINK_ReadReg(R15 (PC))  returns 0x20000000 (0000ms, 0914ms total)
T19170 001:632 JLINK_ClrBPEx(BPHandle = 0x0000000A)  returns 0x00 (0000ms, 0914ms total)
T19170 001:632 JLINK_ReadReg(R0)  returns 0x00000000 (0000ms, 0914ms total)
T19170 001:634 JLINK_WriteMem(0x20000164, 0x0400 Bytes, ...) - Data: 61 88 28 46 FF F7 53 FF E1 88 28 46 FF F7 42 FF ... -- CPU_WriteMem(1024 bytes @ 0x20000164)  returns 0x400 (0008ms, 0922ms total)
T19170 001:642 JLINK_WriteReg(R0, 0x08001800)  returns 0x00 (0000ms, 0922ms total)
T19170 001:642 JLINK_WriteReg(R1, 0x00000400)  returns 0x00 (0000ms, 0922ms total)
T19170 001:642 JLINK_WriteReg(R2, 0x20000164)  returns 0x00 (0001ms, 0923ms total)
T19170 001:643 JLINK_WriteReg(R3, 0x00000000)  returns 0x00 (0000ms, 0923ms total)
T19170 001:643 JLINK_WriteReg(R4, 0x00000000)  returns 0x00 (0000ms, 0923ms total)
T19170 001:643 JLINK_WriteReg(R5, 0x00000000)  returns 0x00 (0000ms, 0923ms total)
T19170 001:643 JLINK_WriteReg(R6, 0x00000000)  returns 0x00 (0000ms, 0923ms total)
T19170 001:643 JLINK_WriteReg(R7, 0x00000000)  returns 0x00 (0000ms, 0923ms total)
T19170 001:643 JLINK_WriteReg(R8, 0x00000000)  returns 0x00 (0000ms, 0923ms total)
T19170 001:643 JLINK_WriteReg(R9, 0x20000160)  returns 0x00 (0000ms, 0923ms total)
T19170 001:643 JLINK_WriteReg(R10, 0x00000000)  returns 0x00 (0000ms, 0923ms total)
T19170 001:643 JLINK_WriteReg(R11, 0x00000000)  returns 0x00 (0000ms, 0923ms total)
T19170 001:643 JLINK_WriteReg(R12, 0x00000000)  returns 0x00 (0000ms, 0923ms total)
T19170 001:643 JLINK_WriteReg(R13 (SP), 0x20000800)  returns 0x00 (0000ms, 0923ms total)
T19170 001:643 JLINK_WriteReg(R14, 0x20000001)  returns 0x00 (0000ms, 0923ms total)
T19170 001:643 JLINK_WriteReg(R15 (PC), 0x200000F4)  returns 0x00 (0000ms, 0923ms total)
T19170 001:643 JLINK_WriteReg(XPSR, 0x01000000)  returns 0x00 (0000ms, 0923ms total)
T19170 001:643 JLINK_WriteReg(MSP, 0x20000800)  returns 0x00 (0000ms, 0923ms total)
T19170 001:643 JLINK_WriteReg(PSP, 0x20000800)  returns 0x00 (0000ms, 0923ms total)
T19170 001:643 JLINK_WriteReg(CFBP, 0x00000000)  returns 0x00 (0000ms, 0923ms total)
T19170 001:643 JLINK_SetBPEx(Addr = 0x20000000, Type = 0xFFFFFFF2)  returns 0x0000000B (0000ms, 0923ms total)
T19170 001:643 JLINK_Go() -- CPU_ReadMem(4 bytes @ 0xE0001000) (0004ms, 0927ms total)
T19170 001:647 JLINK_IsHalted()  returns FALSE (0001ms, 0928ms total)
T19170 001:650 JLINK_IsHalted()  returns FALSE (0001ms, 0928ms total)
T19170 001:653 JLINK_IsHalted()  returns FALSE (0001ms, 0928ms total)
T19170 001:656 JLINK_IsHalted()  returns FALSE (0001ms, 0928ms total)
T19170 001:659 JLINK_IsHalted()  returns FALSE (0001ms, 0928ms total)
T19170 001:662 JLINK_IsHalted()  returns FALSE (0001ms, 0928ms total)
T19170 001:665 JLINK_IsHalted()  returns FALSE (0001ms, 0928ms total)
T19170 001:668 JLINK_IsHalted()  returns FALSE (0001ms, 0928ms total)
T19170 001:671 JLINK_IsHalted()  returns FALSE (0001ms, 0928ms total)
T19170 001:674 JLINK_IsHalted()  returns FALSE (0001ms, 0928ms total)
T19170 001:677 JLINK_IsHalted()  returns FALSE (0001ms, 0928ms total)
T19170 001:680 JLINK_IsHalted() -- CPU_ReadMem(2 bytes @ 0x20000000)  returns TRUE (0005ms, 0932ms total)
T19170 001:685 JLINK_ReadReg(R15 (PC))  returns 0x20000000 (0000ms, 0927ms total)
T19170 001:685 JLINK_ClrBPEx(BPHandle = 0x0000000B)  returns 0x00 (0000ms, 0927ms total)
T19170 001:685 JLINK_ReadReg(R0)  returns 0x00000000 (0000ms, 0927ms total)
T19170 001:686 JLINK_WriteMem(0x20000164, 0x0400 Bytes, ...) - Data: FB 73 19 40 11 43 01 83 70 47 0A 46 00 21 01 8B ... -- CPU_WriteMem(1024 bytes @ 0x20000164)  returns 0x400 (0009ms, 0936ms total)
T19170 001:695 JLINK_WriteReg(R0, 0x08001C00)  returns 0x00 (0000ms, 0936ms total)
T19170 001:695 JLINK_WriteReg(R1, 0x00000400)  returns 0x00 (0000ms, 0936ms total)
T19170 001:695 JLINK_WriteReg(R2, 0x20000164)  returns 0x00 (0000ms, 0936ms total)
T19170 001:695 JLINK_WriteReg(R3, 0x00000000)  returns 0x00 (0000ms, 0936ms total)
T19170 001:695 JLINK_WriteReg(R4, 0x00000000)  returns 0x00 (0000ms, 0936ms total)
T19170 001:695 JLINK_WriteReg(R5, 0x00000000)  returns 0x00 (0000ms, 0936ms total)
T19170 001:695 JLINK_WriteReg(R6, 0x00000000)  returns 0x00 (0000ms, 0936ms total)
T19170 001:695 JLINK_WriteReg(R7, 0x00000000)  returns 0x00 (0000ms, 0936ms total)
T19170 001:695 JLINK_WriteReg(R8, 0x00000000)  returns 0x00 (0000ms, 0936ms total)
T19170 001:695 JLINK_WriteReg(R9, 0x20000160)  returns 0x00 (0000ms, 0936ms total)
T19170 001:695 JLINK_WriteReg(R10, 0x00000000)  returns 0x00 (0000ms, 0936ms total)
T19170 001:695 JLINK_WriteReg(R11, 0x00000000)  returns 0x00 (0000ms, 0936ms total)
T19170 001:695 JLINK_WriteReg(R12, 0x00000000)  returns 0x00 (0000ms, 0936ms total)
T19170 001:695 JLINK_WriteReg(R13 (SP), 0x20000800)  returns 0x00 (0000ms, 0936ms total)
T19170 001:695 JLINK_WriteReg(R14, 0x20000001)  returns 0x00 (0000ms, 0936ms total)
T19170 001:695 JLINK_WriteReg(R15 (PC), 0x200000F4)  returns 0x00 (0000ms, 0936ms total)
T19170 001:695 JLINK_WriteReg(XPSR, 0x01000000)  returns 0x00 (0000ms, 0936ms total)
T19170 001:695 JLINK_WriteReg(MSP, 0x20000800)  returns 0x00 (0002ms, 0938ms total)
T19170 001:697 JLINK_WriteReg(PSP, 0x20000800)  returns 0x00 (0000ms, 0938ms total)
T19170 001:697 JLINK_WriteReg(CFBP, 0x00000000)  returns 0x00 (0000ms, 0938ms total)
T19170 001:697 JLINK_SetBPEx(Addr = 0x20000000, Type = 0xFFFFFFF2)  returns 0x0000000C (0000ms, 0938ms total)
T19170 001:697 JLINK_Go() -- CPU_ReadMem(4 bytes @ 0xE0001000) (0002ms, 0940ms total)
T19170 001:699 JLINK_IsHalted()  returns FALSE (0002ms, 0942ms total)
T19170 001:706 JLINK_IsHalted()  returns FALSE (0000ms, 0940ms total)
T19170 001:709 JLINK_IsHalted()  returns FALSE (0001ms, 0941ms total)
T19170 001:755 JLINK_IsHalted() -- CPU_ReadMem(2 bytes @ 0x20000000)  returns TRUE (0005ms, 0945ms total)
T19170 001:760 JLINK_ReadReg(R15 (PC))  returns 0x20000000 (0000ms, 0940ms total)
T19170 001:760 JLINK_ClrBPEx(BPHandle = 0x0000000C)  returns 0x00 (0000ms, 0940ms total)
T19170 001:760 JLINK_ReadReg(R0)  returns 0x00000000 (0000ms, 0940ms total)
T19170 001:761 JLINK_WriteMem(0x20000164, 0x0400 Bytes, ...) - Data: 0A EB CA 00 00 EB 0A 10 31 68 89 00 B0 FB F1 F8 ... -- CPU_WriteMem(1024 bytes @ 0x20000164)  returns 0x400 (0008ms, 0948ms total)
T19170 001:770 JLINK_WriteReg(R0, 0x08002000)  returns 0x00 (0000ms, 0948ms total)
T19170 001:770 JLINK_WriteReg(R1, 0x00000400)  returns 0x00 (0000ms, 0948ms total)
T19170 001:770 JLINK_WriteReg(R2, 0x20000164)  returns 0x00 (0000ms, 0948ms total)
T19170 001:770 JLINK_WriteReg(R3, 0x00000000)  returns 0x00 (0000ms, 0948ms total)
T19170 001:770 JLINK_WriteReg(R4, 0x00000000)  returns 0x00 (0000ms, 0948ms total)
T19170 001:770 JLINK_WriteReg(R5, 0x00000000)  returns 0x00 (0000ms, 0948ms total)
T19170 001:770 JLINK_WriteReg(R6, 0x00000000)  returns 0x00 (0000ms, 0948ms total)
T19170 001:770 JLINK_WriteReg(R7, 0x00000000)  returns 0x00 (0000ms, 0948ms total)
T19170 001:770 JLINK_WriteReg(R8, 0x00000000)  returns 0x00 (0000ms, 0948ms total)
T19170 001:770 JLINK_WriteReg(R9, 0x20000160)  returns 0x00 (0000ms, 0948ms total)
T19170 001:770 JLINK_WriteReg(R10, 0x00000000)  returns 0x00 (0000ms, 0948ms total)
T19170 001:770 JLINK_WriteReg(R11, 0x00000000)  returns 0x00 (0000ms, 0948ms total)
T19170 001:770 JLINK_WriteReg(R12, 0x00000000)  returns 0x00 (0000ms, 0948ms total)
T19170 001:770 JLINK_WriteReg(R13 (SP), 0x20000800)  returns 0x00 (0000ms, 0948ms total)
T19170 001:770 JLINK_WriteReg(R14, 0x20000001)  returns 0x00 (0000ms, 0948ms total)
T19170 001:770 JLINK_WriteReg(R15 (PC), 0x200000F4)  returns 0x00 (0001ms, 0949ms total)
T19170 001:771 JLINK_WriteReg(XPSR, 0x01000000)  returns 0x00 (0000ms, 0949ms total)
T19170 001:771 JLINK_WriteReg(MSP, 0x20000800)  returns 0x00 (0000ms, 0949ms total)
T19170 001:771 JLINK_WriteReg(PSP, 0x20000800)  returns 0x00 (0000ms, 0949ms total)
T19170 001:771 JLINK_WriteReg(CFBP, 0x00000000)  returns 0x00 (0000ms, 0949ms total)
T19170 001:771 JLINK_SetBPEx(Addr = 0x20000000, Type = 0xFFFFFFF2)  returns 0x0000000D (0000ms, 0949ms total)
T19170 001:771 JLINK_Go() -- CPU_ReadMem(4 bytes @ 0xE0001000) (0003ms, 0952ms total)
T19170 001:774 JLINK_IsHalted()  returns FALSE (0001ms, 0953ms total)
T19170 001:777 JLINK_IsHalted()  returns FALSE (0000ms, 0952ms total)
T19170 001:780 JLINK_IsHalted()  returns FALSE (0001ms, 0953ms total)
T19170 001:783 JLINK_IsHalted()  returns FALSE (0001ms, 0953ms total)
T19170 001:786 JLINK_IsHalted()  returns FALSE (0001ms, 0953ms total)
T19170 001:789 JLINK_IsHalted()  returns FALSE (0001ms, 0953ms total)
T19170 001:792 JLINK_IsHalted()  returns FALSE (0001ms, 0953ms total)
T19170 001:795 JLINK_IsHalted()  returns FALSE (0001ms, 0953ms total)
T19170 001:798 JLINK_IsHalted()  returns FALSE (0000ms, 0952ms total)
T19170 001:801 JLINK_IsHalted()  returns FALSE (0000ms, 0952ms total)
T19170 001:804 JLINK_IsHalted()  returns FALSE (0001ms, 0953ms total)
T19170 001:807 JLINK_IsHalted() -- CPU_ReadMem(2 bytes @ 0x20000000)  returns TRUE (0005ms, 0957ms total)
T19170 001:812 JLINK_ReadReg(R15 (PC))  returns 0x20000000 (0000ms, 0952ms total)
T19170 001:812 JLINK_ClrBPEx(BPHandle = 0x0000000D)  returns 0x00 (0000ms, 0952ms total)
T19170 001:812 JLINK_ReadReg(R0)  returns 0x00000000 (0000ms, 0952ms total)
T19170 001:814 JLINK_WriteMem(0x20000164, 0x0400 Bytes, ...) - Data: 00 BF 30 BD 70 B5 FF F7 D3 FF 01 F0 78 F9 00 F0 ... -- CPU_WriteMem(1024 bytes @ 0x20000164)  returns 0x400 (0008ms, 0960ms total)
T19170 001:822 JLINK_WriteReg(R0, 0x08002400)  returns 0x00 (0001ms, 0961ms total)
T19170 001:823 JLINK_WriteReg(R1, 0x00000400)  returns 0x00 (0000ms, 0961ms total)
T19170 001:823 JLINK_WriteReg(R2, 0x20000164)  returns 0x00 (0000ms, 0961ms total)
T19170 001:823 JLINK_WriteReg(R3, 0x00000000)  returns 0x00 (0000ms, 0961ms total)
T19170 001:823 JLINK_WriteReg(R4, 0x00000000)  returns 0x00 (0000ms, 0961ms total)
T19170 001:823 JLINK_WriteReg(R5, 0x00000000)  returns 0x00 (0000ms, 0961ms total)
T19170 001:823 JLINK_WriteReg(R6, 0x00000000)  returns 0x00 (0000ms, 0961ms total)
T19170 001:823 JLINK_WriteReg(R7, 0x00000000)  returns 0x00 (0000ms, 0961ms total)
T19170 001:823 JLINK_WriteReg(R8, 0x00000000)  returns 0x00 (0000ms, 0961ms total)
T19170 001:823 JLINK_WriteReg(R9, 0x20000160)  returns 0x00 (0000ms, 0961ms total)
T19170 001:823 JLINK_WriteReg(R10, 0x00000000)  returns 0x00 (0000ms, 0961ms total)
T19170 001:823 JLINK_WriteReg(R11, 0x00000000)  returns 0x00 (0000ms, 0961ms total)
T19170 001:823 JLINK_WriteReg(R12, 0x00000000)  returns 0x00 (0000ms, 0961ms total)
T19170 001:823 JLINK_WriteReg(R13 (SP), 0x20000800)  returns 0x00 (0000ms, 0961ms total)
T19170 001:823 JLINK_WriteReg(R14, 0x20000001)  returns 0x00 (0000ms, 0961ms total)
T19170 001:823 JLINK_WriteReg(R15 (PC), 0x200000F4)  returns 0x00 (0000ms, 0961ms total)
T19170 001:823 JLINK_WriteReg(XPSR, 0x01000000)  returns 0x00 (0000ms, 0961ms total)
T19170 001:823 JLINK_WriteReg(MSP, 0x20000800)  returns 0x00 (0000ms, 0961ms total)
T19170 001:823 JLINK_WriteReg(PSP, 0x20000800)  returns 0x00 (0001ms, 0962ms total)
T19170 001:824 JLINK_WriteReg(CFBP, 0x00000000)  returns 0x00 (0000ms, 0962ms total)
T19170 001:824 JLINK_SetBPEx(Addr = 0x20000000, Type = 0xFFFFFFF2)  returns 0x0000000E (0000ms, 0962ms total)
T19170 001:824 JLINK_Go() -- CPU_ReadMem(4 bytes @ 0xE0001000) (0003ms, 0965ms total)
T19170 001:827 JLINK_IsHalted()  returns FALSE (0001ms, 0966ms total)
T19170 001:862 JLINK_IsHalted() -- CPU_ReadMem(2 bytes @ 0x20000000)  returns TRUE (0005ms, 0970ms total)
T19170 001:867 JLINK_ReadReg(R15 (PC))  returns 0x20000000 (0000ms, 0965ms total)
T19170 001:867 JLINK_ClrBPEx(BPHandle = 0x0000000E)  returns 0x00 (0000ms, 0965ms total)
T19170 001:867 JLINK_ReadReg(R0)  returns 0x00000000 (0000ms, 0965ms total)
T19170 001:868 JLINK_WriteMem(0x20000164, 0x0400 Bytes, ...) - Data: C4 60 5B E0 71 A1 00 98 06 F0 29 F8 10 B9 6B 48 ... -- CPU_WriteMem(1024 bytes @ 0x20000164)  returns 0x400 (0008ms, 0973ms total)
T19170 001:877 JLINK_WriteReg(R0, 0x08002800)  returns 0x00 (0000ms, 0973ms total)
T19170 001:877 JLINK_WriteReg(R1, 0x00000400)  returns 0x00 (0000ms, 0973ms total)
T19170 001:877 JLINK_WriteReg(R2, 0x20000164)  returns 0x00 (0000ms, 0973ms total)
T19170 001:877 JLINK_WriteReg(R3, 0x00000000)  returns 0x00 (0000ms, 0973ms total)
T19170 001:877 JLINK_WriteReg(R4, 0x00000000)  returns 0x00 (0000ms, 0973ms total)
T19170 001:877 JLINK_WriteReg(R5, 0x00000000)  returns 0x00 (0000ms, 0973ms total)
T19170 001:877 JLINK_WriteReg(R6, 0x00000000)  returns 0x00 (0000ms, 0973ms total)
T19170 001:877 JLINK_WriteReg(R7, 0x00000000)  returns 0x00 (0000ms, 0973ms total)
T19170 001:877 JLINK_WriteReg(R8, 0x00000000)  returns 0x00 (0000ms, 0973ms total)
T19170 001:877 JLINK_WriteReg(R9, 0x20000160)  returns 0x00 (0000ms, 0973ms total)
T19170 001:877 JLINK_WriteReg(R10, 0x00000000)  returns 0x00 (0000ms, 0973ms total)
T19170 001:877 JLINK_WriteReg(R11, 0x00000000)  returns 0x00 (0000ms, 0973ms total)
T19170 001:877 JLINK_WriteReg(R12, 0x00000000)  returns 0x00 (0000ms, 0973ms total)
T19170 001:877 JLINK_WriteReg(R13 (SP), 0x20000800)  returns 0x00 (0000ms, 0973ms total)
T19170 001:877 JLINK_WriteReg(R14, 0x20000001)  returns 0x00 (0000ms, 0973ms total)
T19170 001:877 JLINK_WriteReg(R15 (PC), 0x200000F4)  returns 0x00 (0001ms, 0974ms total)
T19170 001:878 JLINK_WriteReg(XPSR, 0x01000000)  returns 0x00 (0000ms, 0974ms total)
T19170 001:878 JLINK_WriteReg(MSP, 0x20000800)  returns 0x00 (0000ms, 0974ms total)
T19170 001:878 JLINK_WriteReg(PSP, 0x20000800)  returns 0x00 (0000ms, 0974ms total)
T19170 001:878 JLINK_WriteReg(CFBP, 0x00000000)  returns 0x00 (0000ms, 0974ms total)
T19170 001:878 JLINK_SetBPEx(Addr = 0x20000000, Type = 0xFFFFFFF2)  returns 0x0000000F (0000ms, 0974ms total)
T19170 001:878 JLINK_Go() -- CPU_ReadMem(4 bytes @ 0xE0001000) (0003ms, 0977ms total)
T19170 001:881 JLINK_IsHalted()  returns FALSE (0001ms, 0978ms total)
T19170 001:888 JLINK_IsHalted()  returns FALSE (0001ms, 0978ms total)
T19170 001:891 JLINK_IsHalted()  returns FALSE (0001ms, 0978ms total)
T19170 001:894 JLINK_IsHalted()  returns FALSE (0001ms, 0978ms total)
T19170 001:897 JLINK_IsHalted()  returns FALSE (0001ms, 0978ms total)
T19170 001:900 JLINK_IsHalted()  returns FALSE (0001ms, 0978ms total)
T19170 001:903 JLINK_IsHalted()  returns FALSE (0001ms, 0978ms total)
T19170 001:906 JLINK_IsHalted()  returns FALSE (0001ms, 0978ms total)
T19170 001:909 JLINK_IsHalted()  returns FALSE (0001ms, 0978ms total)
T19170 001:912 JLINK_IsHalted() -- CPU_ReadMem(2 bytes @ 0x20000000)  returns TRUE (0004ms, 0981ms total)
T19170 001:916 JLINK_ReadReg(R15 (PC))  returns 0x20000000 (0001ms, 0978ms total)
T19170 001:917 JLINK_ClrBPEx(BPHandle = 0x0000000F)  returns 0x00 (0000ms, 0978ms total)
T19170 001:917 JLINK_ReadReg(R0)  returns 0x00000000 (0000ms, 0978ms total)
T19170 001:918 JLINK_WriteMem(0x20000164, 0x0400 Bytes, ...) - Data: 01 00 00 F0 FF 09 64 1C D5 E7 00 BF 08 F0 02 00 ... -- CPU_WriteMem(1024 bytes @ 0x20000164)  returns 0x400 (0008ms, 0986ms total)
T19170 001:927 JLINK_WriteReg(R0, 0x08002C00)  returns 0x00 (0000ms, 0986ms total)
T19170 001:927 JLINK_WriteReg(R1, 0x00000400)  returns 0x00 (0000ms, 0986ms total)
T19170 001:927 JLINK_WriteReg(R2, 0x20000164)  returns 0x00 (0000ms, 0986ms total)
T19170 001:927 JLINK_WriteReg(R3, 0x00000000)  returns 0x00 (0000ms, 0986ms total)
T19170 001:927 JLINK_WriteReg(R4, 0x00000000)  returns 0x00 (0000ms, 0986ms total)
T19170 001:927 JLINK_WriteReg(R5, 0x00000000)  returns 0x00 (0000ms, 0986ms total)
T19170 001:927 JLINK_WriteReg(R6, 0x00000000)  returns 0x00 (0000ms, 0986ms total)
